! Filename:       BFR520K.S2P                                Version:   2.1
! NXP part #: BFR520                                     Date: Sep 1991
! Bias condition: Vce=6V, Ic=20mA
#  MHz  S  MA  R  50
! Freq       S11            S21            S12            S22 
20.0 -1.08711636434 -0.3911588996560.0183080511808 0.0042623086585 -7.13196869522 8.66529558724 -0.605626026584 0.0676889950172
30.0 -1.17171018047 -0.34244217480.0200421768821 0.00739572985026 -2.64530264474 6.67500559358 -0.650866100208 -0.0328426540789
40.0 -1.20569343066 -0.4106569343070.021011115095 0.00885622086769 -1.52312656866 5.63786303335 -0.641089996414 -0.0620294012191
50.0 -1.13295498917 -0.4685585862170.0225886477645 0.0107621633889 -0.801371095859 4.93970152057 -0.648539297705 -0.0570507352423
60.0 -1.07154837867 -0.4566355806820.0236086412088 0.0125766838888 -0.257258005114 3.96350741321 -0.689855102964 -0.043374406785
70.0 -1.04594994958 -0.4130866192270.023915784697 0.0145775706508 -0.0600421517025 3.30661784445 -0.72928532566 -0.0343205766641
80.0 -0.998933540293 -0.4756871609650.0249781958291 0.0150697181466 0.1473851555 2.77768577706 -0.730566687643 -0.0345002704821
90.0 -1.0141145687 -0.4870909982930.025228596554 0.0159634044968 0.189314746797 2.38087359531 -0.745949235973 -0.0441600712337
100.0 -0.907431699543 -0.5573915505640.0267458045786 0.0162322195624 0.328457099234 2.2289723491 -0.7209302922 -0.0300776497305
110.0 -0.903454406147 -0.6183247943420.0268107143742 0.0165027132839 0.363105437814 2.0434925978 -0.713308719677 -0.0453452932577
120.0 -0.885940250923 -0.6251731178460.0274123693566 0.0181328571501 0.371180488258 1.82180906027 -0.71790296066 -0.0435915756547
130.0 -0.8442543423 -0.6312552332550.0281091119013 0.0190343029169 0.400223640272 1.73122930289 -0.715855107676 -0.0394262593942
140.0 -0.809316851723 -0.6114752327120.0289400449351 0.0211988699411 0.40589691987 1.59040543132 -0.71979479871 -0.0283810307666
150.0 -0.738435971145 -0.6323951967290.0299397966757 0.0216301444349 0.459960665857 1.50881523716 -0.71286355078 -0.0293538381541
160.0 -0.741241539061 -0.6067030118390.0302384807337 0.0230691884312 0.416533720994 1.35211555757 -0.728370430945 -0.021086559672
170.0 -0.660835417391 -0.6316769245380.0314308057834 0.0224846408069 0.47919105262 1.3151285595 -0.711302402182 -0.0226937649448
180.0 -0.625363481644 -0.6487138341840.0318468420671 0.0224688227771 0.502052419062 1.26891436805 -0.705389903774 -0.0278347118515
190.0 -0.594180767179 -0.6685105431080.0321109397154 0.0224103416371 0.513824403423 1.20157469618 -0.705586126628 -0.0363452895807
200.0 -0.520467154296 -0.7001305980490.0336451109578 0.0214176455415 0.551527890156 1.11667370306 -0.696784615857 -0.0510557039253
210.0 -0.505187120097 -0.6868266527250.0342928535025 0.0223162427441 0.536729414927 1.04889266719 -0.699535879482 -0.0468198150429
220.0 -0.446670547462 -0.6939016256930.0352673869046 0.0217417087473 0.564268940991 0.988802572196 -0.695689006148 -0.0556002393997
230.0 -0.416330690372 -0.6947124505780.0364686615374 0.0219985661244 0.564793152059 0.932217418184 -0.694041363882 -0.0597528769281
240.0 -0.374636989982 -0.6899770985340.0373339154178 0.021886289457 0.572864100931 0.871723998972 -0.694044010235 -0.0645416278646
250.0 -0.360632426714 -0.6828412863540.0380711895754 0.0227277779629 0.560950751446 0.826510945467 -0.691626907535 -0.0633146882794
