!Archivo .S2P a partir de .Y2P
!Autor: Jonnathan Sebastian Sanchez Sanabria
!Grupo de trabajo GNU/Linux Universidad Distrital (GLUD)
!License: GPLv3
!Year:2017
! Bias condition: Vce=15V, Ic=7mA
#  MHz  S  MA  R  50
!Freq.(MHz) S11(Real) S11(Imag) S21(Real) S21(Imag) S12(Real) S12(Imag) S22(Real) S22(Imag)
50.0 1.0023444799 -0.008467813226340.0627678043401 0.03173505939 4.889020618e-05 -2.34643374755e-05 -0.999247769269 -0.0039968298645
60.0 1.00221120179 -0.008862050916670.0468628861783 0.0207132147406 5.72437583643e-05 -2.40774984223e-05 -0.999258232054 -0.00348669873966
70.0 0.998125281909 0.00893491178590.0372498183729 0.0137613567917 -6.27230139306e-05 2.48612768404e-05 -0.999314305068 -0.00312654365132
80.0 -0.62583612963 -0.806792605377-0.0120567736953 -0.0226870121879 -0.00768595735708 -0.00496649222552 -0.998741535446 -0.000576487405006
90.0 1.00076980082 -0.00657229565890.0267966233567 0.00665069210345 5.10948075485e-05 -1.63829837708e-05 -0.999380814728 -0.00260058282521
100.0 1.00052866044 -0.007881885459390.023679445559 0.00451520174817 6.30202667941e-05 -1.93017355829e-05 -0.999418878938 -0.00241367525134
110.0 1.00024695912 -0.007604360779110.0211236266615 0.00320919713181 6.30012058748e-05 -1.917714171e-05 -0.99945521173 -0.00225804108988
120.0 1.00048519763 -0.007107011862860.0185762879748 0.00325538775864 6.03459227585e-05 -1.6333924936e-05 -0.999488530652 -0.00212532720948
130.0 1.00054338531 -0.006999392004880.0172150384296 0.00310977819369 6.01954270931e-05 -1.53250282694e-05 -0.999518309646 -0.00201076062092
140.0 1.00049341919 -0.006498949899130.0151149141379 0.00263596547976 6.00604797857e-05 -1.43914224573e-05 -0.999545524629 -0.00191085212768
150.0 0.860408574049 -0.5641571651430.0119717369011 0.00476573321836 0.00556121381287 6.32339422489e-05 -0.999208036807 -0.00156940222151
160.0 1.00022747198 -0.005305599929810.0116693250699 0.00148483160999 5.5717010919e-05 -1.14175443278e-05 -0.999592676493 -0.00174421797321
170.0 1.00001359072 -0.004926116144890.0104924810831 0.000862386229063 5.45141797262e-05 -1.05143168445e-05 -0.999612972273 -0.00167373639675
180.0 0.999954654014 -0.00467038437280.00949803569658 0.000633415162849 5.43946197725e-05 -1.00510107402e-05 -0.999631484365 -0.00160990880171
190.0 0.999997778928 -0.004337728397760.00863187082456 0.000620074341604 5.26780306876e-05 -9.15786018886e-06 -0.999648507723 -0.00155182247053
200.0 0.99993109191 -0.00413379845290.0078817234603 0.000417303146155 5.26006877391e-05 -8.75609016149e-06 -0.999664063306 -0.00149877562523
210.0 0.999950854484 -0.004328364690470.00743914528243 0.000407312483554 5.55981152486e-05 -8.4968949359e-06 -0.999678181564 -0.00144992746337
220.0 0.999921372926 -0.004258836538050.00691898359326 0.000313654147565 5.6414563731e-05 -8.23961158369e-06 -0.999691379108 -0.00140496004255
230.0 0.999876983425 -0.00416316045780.00630278123702 0.00020184938388 5.81620915735e-05 -8.1151746513e-06 -0.999703621429 -0.00136332677617
240.0 0.999949239837 -0.003960239633350.0057923701174 0.000266561277609 5.78840854919e-05 -7.50680340831e-06 -0.999715077258 -0.00132461173096
250.0 1.00000184093 -0.003806905005960.00547188533967 0.000314631148092 5.70317157912e-05 -6.9835896706e-06 -0.999725720776 -0.00128852123005
260.0 1.00006071135 -0.003696491445760.00514817453763 0.000361369881062 5.64081138933e-05 -6.24283608504e-06 -0.999735627087 -0.00125477542979
270.0 1.00010845628 -0.00369935227240.00491699589145 0.000397552743747 5.70292056885e-05 -5.78857488539e-06 -0.99974483587 -0.00122313894297
280.0 1.00016037321 -0.003774630618170.00466140688422 0.000428776613771 5.92765616618e-05 -5.48709915608e-06 -0.999753435859 -0.00119340182195
290.0 1.00023685809 -0.003512349426470.00415975429694 0.000477155730485 5.97104764282e-05 -5.01184748749e-06 -0.999761667335 -0.0011654281229
300.0 1.00027376158 -0.003437639859160.00396215784435 0.000497023393964 5.968410699e-05 -4.61387300575e-06 -0.999769329083 -0.0011390182144
350.0 1.00040303432 -0.0025461823120.00276273820079 0.000542910933649 5.43978987103e-05 -2.80117934798e-06 -0.999801864639 -0.00102636398717
400.0 1.0005359231 -0.002308521259110.0021896441112 0.000573267093363 5.4155502382e-05 -4.68334341038e-07 -0.999826632797 -0.000937714882101
450.0 1.00060462432 -0.00197428721750.00160009378345 0.000532955047676 5.66915977615e-05 1.51029766626e-07 -0.999846266883 -0.000865858435054
500.0 1.00065832795 -0.001773793517230.00129739895498 0.000511217457735 5.71029365826e-05 1.38249777281e-06 -0.999862121991 -0.000806192962901
