! 
!                                    POLYFET RF DEVICES 
! 
!                                     S PARAMETERS FOR 
!  
!                                         S8201 
!
!                                     VDS=28, IDQ=200MA 
! 
!
!
! S2A1Die, AP pkg, VDS=28VDC, IDQ=200ma, Vgsth=3.17Vdc
! Date: Thu Sep 24 14:28:25 1998
# MHZ  S  MA  R  50.0000
! SCATTERING PARAMETERS :
! Freq=MHz Mag[s11] Ang[s11] Mag[s21] Ang[s21] Mag[s12] Ang[s12] Mag[s22] Ang[s22]
100.000  0.83109 -63.7850  15.6866  134.764  0.03110  45.1690  0.69771 -46.3983
125.000  0.79480 -74.6326  14.1631  127.406  0.03408  38.6780  0.66179 -53.7374
150.000  0.76484 -84.4084  12.8101  120.761  0.03622  34.6064  0.63160 -60.7870
175.000  0.73864 -92.6450  11.6799  115.112  0.03836  29.8415  0.60580 -66.6689
200.000  0.71679 -100.070  10.6173  109.689  0.03850  26.7707  0.58472 -72.0152
225.000  0.70255 -106.635  9.73682  105.456  0.03954  24.1185  0.57201 -76.6313
250.000  0.69184 -112.291  8.90673  101.226  0.03955  22.0031  0.56033 -81.0830
275.000  0.68510 -117.016  8.23265  97.6503  0.03881  20.5020  0.55516 -85.1131
300.000  0.67761 -121.381  7.65437  94.3976  0.03926  18.1304  0.55097 -88.7686
325.000  0.67358 -125.379  7.12250  91.2326  0.03828  17.0965  0.54925 -92.2999
350.000  0.67162 -129.310  6.63316  88.0089  0.03681  16.6566  0.54722 -95.4273
375.000  0.66868 -132.348  6.18620  85.2018  0.03665  16.9454  0.54878 -98.6541
400.000  0.66694 -135.426  5.78439  82.8963  0.03606  15.6573  0.55268 -101.714
425.000  0.66679 -138.009  5.45676  80.5050  0.03547  16.9510  0.55423 -104.381
450.000  0.66885 -140.699  5.13623  77.9444  0.03400  17.4794  0.56158 -107.188
475.000  0.66886 -143.005  4.87682  75.8855  0.03384  17.1502  0.56388 -109.585
500.000  0.66888 -145.375  4.61626  73.5260  0.03264  20.5400  0.56888 -111.947
525.000  0.67118 -147.507  4.35589  71.7056  0.03155  20.0854  0.57406 -114.424
550.000  0.67324 -149.514  4.13354  69.8333  0.03014  23.1429  0.58000 -116.840
575.000  0.67400 -151.345  3.94506  68.1485  0.02965  23.9580  0.58649 -118.825
600.000  0.67764 -152.973  3.76711  66.1827  0.02918  26.9754  0.59193 -120.608
625.000  0.68024 -154.768  3.60251  64.2171  0.02933  29.1023  0.59931 -122.492
650.000  0.68136 -156.533  3.44849  62.2721  0.02934  30.4699  0.60605 -124.720
675.000  0.68556 -158.067  3.26512  60.8213  0.02905  33.9417  0.61172 -126.519
700.000  0.68683 -159.641  3.13168  59.2944  0.02804  35.3877  0.62005 -128.676
725.000  0.68894 -161.159  3.00756  57.8746  0.02872  39.2560  0.62744 -130.210
750.000  0.69299 -162.662  2.90138  56.0144  0.02905  41.3930  0.63067 -131.795
775.000  0.69323 -163.880  2.76216  54.3720  0.02919  43.5169  0.63016 -133.324
800.000  0.69407 -165.350  2.64104  53.0978  0.02943  44.6561  0.64157 -134.890
825.000  0.69824 -166.518  2.54077  51.9467  0.02867  47.9279  0.64801 -136.634
850.000  0.69668 -168.014  2.45018  50.8922  0.02854  51.9256  0.65511 -137.997
875.000  0.70092 -169.232  2.37736  49.2765  0.03002  55.3561  0.66243 -139.227
900.000  0.70293 -170.355  2.29243  47.9958  0.03043  57.5131  0.66926 -140.751
925.000  0.70683 -171.505  2.20349  46.4715  0.03186  59.1475  0.67165 -141.919
950.000  0.70884 -172.644  2.11201  45.2154  0.03377  62.4305  0.67698 -143.369
975.000  0.71025 -173.692  2.03235  44.8024  0.03300  62.8533  0.68154 -144.615
1000.00  0.71293 -175.044  1.98296  43.7928  0.03359  65.7435  0.68960 -145.749
1025.00  0.71371 -176.158  1.93519  42.1024  0.03651  68.4133  0.69429 -146.779
1050.00  0.71602 -177.274  1.85908  40.5156  0.03735  70.9303  0.69767 -147.984
1075.00  0.71788 -178.311  1.78219  39.5616  0.03965  70.6004  0.70082 -148.979
1100.00  0.71984 -179.325  1.71453  38.8790  0.04103  72.5389  0.70436 -150.138
1125.00  0.72247  179.622  1.67697  38.6324  0.04356  72.8579  0.70979 -151.182
1150.00  0.72320  178.515  1.64507  37.5110  0.04271  73.4395  0.71364 -152.151
1175.00  0.72457  177.446  1.59417  35.8135  0.04552  75.6456  0.71947 -153.182
1200.00  0.72358  176.344  1.52760  34.5498  0.04734  73.8009  0.72240 -154.223
1225.00  0.72482  175.395  1.46543  34.0463  0.04826  74.5703  0.72456 -154.954
1250.00  0.72563  174.352  1.42478  33.8888  0.04813  73.9654  0.72962 -155.828
1275.00  0.72683  173.614  1.40535  33.1506  0.04933  74.9854  0.73322 -156.683
1300.00  0.72824  172.821  1.37118  31.9313  0.04899  76.9723  0.74108 -157.518
1325.00  0.72918  171.892  1.33560  30.9769  0.05203  78.8898  0.74084 -157.966
1350.00  0.73194  170.806  1.28894  29.6217  0.05537  79.0709  0.74651 -159.111
1375.00  0.73079  169.753  1.23763  29.3790  0.05627  79.2550  0.75126 -159.924
1400.00  0.73175  169.032  1.20776  29.4798  0.05742  79.6053  0.75468 -160.605
1425.00  0.73488  168.052  1.19554  28.9615  0.05759  80.1766  0.75901 -161.412
1450.00  0.73405  167.334  1.17278  27.6533  0.05967  82.3952  0.76340 -162.053
1475.00  0.73544  166.324  1.12961  26.6028  0.06103  82.4202  0.76788 -162.759
1500.00  0.73608  165.439  1.09714  26.0391  0.06320  82.3654  0.77045 -163.624
1525.00  0.73632  164.505  1.06151  25.7288  0.06415  82.4192  0.77930 -164.173
1550.00  0.73808  163.429  1.04019  26.1501  0.06580  81.8783  0.78148 -164.837
1575.00  0.74015  162.513  1.03106  25.0247  0.06893  83.2696  0.78641 -165.624
1600.00  0.74139  161.646  1.00333  23.8393  0.06939  83.3516  0.78924 -166.375
1625.00  0.74115  160.948  0.97122  23.3833  0.07320  84.6965  0.79486 -167.139
1650.00  0.74125  160.260  0.94053  23.5057  0.07455  83.8725  0.79530 -167.677
1675.00  0.73954  159.019  0.92405  23.7029  0.07650  83.5098  0.80121 -168.262
1700.00  0.74104  157.980  0.90900  23.5269  0.07699  83.4131  0.80413 -169.004
1725.00  0.74120  156.978  0.90093  23.2656  0.07981  84.8783  0.80338 -169.384
1750.00  0.74300  156.298  0.88946  22.3519  0.08242  84.2622  0.80715 -169.889
1775.00  0.74108  155.408  0.85823  21.2745  0.08474  82.3336  0.81157 -170.342
1800.00  0.73806  154.423  0.83536  22.4428  0.08775  82.5645  0.81522 -170.846
1825.00  0.73581  153.798  0.83712  23.5220  0.08855  81.6927  0.82046 -171.277
1850.00  0.73425  152.856  0.84606  22.4968  0.08802  82.9948  0.82348 -171.789
1875.00  0.73415  151.965  0.82757  21.0103  0.09019  83.0427  0.82364 -171.908
1900.00  0.73313  151.231  0.80412  20.7887  0.09422  81.8017  0.83057 -172.495
1925.00  0.73289  150.443  0.79931  20.9286  0.09643  80.2973  0.83432 -172.972
1950.00  0.73082  149.709  0.79230  21.1703  0.09576  79.7542  0.83923 -173.368
1975.00  0.72723  149.178  0.80244  21.0115  0.09640  80.5844  0.84370 -173.927
2000.00  0.72678  148.190  0.80502  19.2111  0.09891  80.3640  0.84961 -174.459
2025.00  0.72363  147.324  0.78873  17.8043  0.09946  80.2457  0.84966 -174.650
2050.00  0.71962  146.459  0.77317  17.3092  0.10200  80.9146  0.85146 -174.964
2075.00  0.71782  145.753  0.77172  17.8973  0.10590  79.8521  0.85619 -175.393
2100.00  0.71625  145.083  0.78706  17.0874  0.10482  77.4386  0.86061 -175.947
! Dbas: C:\ANACAT\POLYFET\APAK.DAT
!
! Unit: SP201
! 
!
! Meas: 835V#9
! S2A 1DIE, AP PKG, VDS=28VDC, IDQ=200ma, Vgsth=3.17Vdc, wafer=80601-05
!
! Date: Thu Sep 24 14:28:25 1998
